T1418 000:211.726   SEGGER J-Link V7.86g Log File
T1418 000:212.098   DLL Compiled: Apr  6 2023 16:24:24
T1418 000:212.149   Logging started @ 2025-11-08 14:19
T1418 000:212.194 - 212.219ms
T1418 000:212.249 JLINK_SetWarnOutHandler(...)
T1418 000:212.294 - 0.066ms
T1418 000:212.339 JLINK_OpenEx(...)
T1418 000:214.200   Firmware: J-Trace PRO V2 Cortex compiled Dec  4 2024 17:58:20
T1418 000:216.552   Firmware: J-Trace PRO V2 Cortex compiled Dec  4 2024 17:58:20
T1418 000:236.286   Hardware: V2.00
T1418 000:236.407   S/N: 758894664
T1418 000:236.493   OEM: SEGGER
T1418 000:236.577   Feature(s): RDI, FlashBP, FlashDL, JFlash, GDB
T1418 000:237.459   USB speed mode: Super speed (5 GBit/s)
T1418 000:237.889   TELNET listener socket opened on port 19021
T1418 000:238.883   WEBSRV WEBSRV_Init(): Starting webserver thread(s)
T1418 000:239.156   WEBSRV Webserver running on local port 19080
T1418 000:321.830 - 109.567ms returns "O.K."
T1418 000:321.975 JLINK_SetErrorOutHandler(...)
T1418 000:322.031 - 0.082ms
T1418 000:322.119 JLINK_ExecCommand("ProjectFile = "H:\2025ÄęÉčĽĆÎÄĽţ\Test_ Tool\ALIENTEK MINISTM32 ĘµŃé9 ĘäČë˛¶»ńĘµŃé -20250515\USER\JLinkSettings.ini"", ...). 
T1418 000:347.306   Ref file found at: C:\Keil_v5\ARM\Segger\JLinkDevices.ref
T1418 000:348.495   REF file references invalid XML file: C:\Program Files\SEGGER\JLink\JLinkDevices.xml
T1418 000:349.678 - 27.593ms returns 0x00
T1418 000:360.319 JLINK_ExecCommand("Device = STM32F103C8", ...). 
T1418 000:369.481   Device "STM32F103C8" selected.
T1418 000:371.593 - 11.250ms returns 0x00
T1418 000:371.688 JLINK_ExecCommand("DisableConnectionTimeout", ...). 
T1418 000:371.759 - 0.036ms returns 0x01
T1418 000:371.826 JLINK_GetHardwareVersion()
T1418 000:371.886 - 0.086ms returns 20000
T1418 000:371.960 JLINK_GetDLLVersion()
T1418 000:372.017 - 0.086ms returns 78607
T1418 000:372.078 JLINK_GetOEMString(...)
T1418 000:372.138 JLINK_GetFirmwareString(...)
T1418 000:372.196 - 0.087ms
T1418 000:393.031 JLINK_GetDLLVersion()
T1418 000:393.142 - 0.133ms returns 78607
T1418 000:393.190 JLINK_GetCompileDateTime()
T1418 000:393.232 - 0.062ms
T1418 000:399.939 JLINK_GetFirmwareString(...)
T1418 000:400.032 - 0.115ms
T1418 000:405.948 JLINK_GetHardwareVersion()
T1418 000:406.017 - 0.090ms returns 20000
T1418 000:413.151 JLINK_GetSN()
T1418 000:413.232 - 0.102ms returns 758894664
T1418 000:419.691 JLINK_GetOEMString(...)
T1418 000:432.116 JLINK_TIF_Select(JLINKARM_TIF_SWD)
T1418 000:432.943 - 0.877ms returns 0x00
T1418 000:433.022 JLINK_HasError()
T1418 000:433.078 JLINK_SetSpeed(50000)
T1418 000:433.244 - 0.207ms
T1418 000:433.315 JLINK_GetId()
T1418 000:439.599   InitTarget() start
T1418 000:439.710    J-Link Script File: Executing InitTarget()
T1418 000:446.564   SWD selected. Executing JTAG -> SWD switching sequence.
T1418 000:453.689   DAP initialized successfully.
T1418 000:469.435   InitTarget() end - Took 24.4ms
T1418 000:476.072   Found SW-DP with ID 0x1BA01477
T1418 000:484.759   DPIDR: 0x1BA01477
T1418 000:489.380   CoreSight SoC-400 or earlier
T1418 000:493.990   Scanning AP map to find all available APs
T1418 000:499.914   AP[1]: Stopped AP scan as end of AP map has been reached
T1418 000:504.847   AP[0]: AHB-AP (IDR: 0x14770011)
T1418 000:510.708   Iterating through AP map to find AHB-AP to use
T1418 000:517.615   AP[0]: Core found
T1418 000:523.035   AP[0]: AHB-AP ROM base: 0xE00FF000
T1418 000:529.481   CPUID register: 0x411FC231. Implementer code: 0x41 (ARM)
T1418 000:534.889   Found Cortex-M3 r1p1, Little endian.
T1418 000:535.371   -- Max. mem block: 0x000166D8
T1418 000:535.907   CPU_ReadMem(4 bytes @ 0xE000EDF0)
T1418 000:536.211   CPU_ReadMem(4 bytes @ 0xE0002000)
T1418 000:542.961   FPUnit: 6 code (BP) slots and 2 literal slots
T1418 000:543.046   CPU_ReadMem(4 bytes @ 0xE000EDFC)
T1418 000:543.381   CPU_WriteMem(4 bytes @ 0xE000EDFC)
T1418 000:543.654   CPU_ReadMem(4 bytes @ 0xE0001000)
T1418 000:543.907   CPU_WriteMem(4 bytes @ 0xE0001000)
T1418 000:544.183   CPU_ReadMem(4 bytes @ 0xE000ED88)
T1418 000:544.554   CPU_WriteMem(4 bytes @ 0xE000ED88)
T1418 000:544.801   CPU_ReadMem(4 bytes @ 0xE000ED88)
T1418 000:545.087   CPU_WriteMem(4 bytes @ 0xE000ED88)
T1418 000:550.482   CoreSight components:
T1418 000:555.223   ROMTbl[0] @ E00FF000
T1418 000:555.312   CPU_ReadMem(64 bytes @ 0xE00FF000)
T1418 000:555.714   CPU_ReadMem(32 bytes @ 0xE000EFE0)
T1418 000:560.941   [0][0]: E000E000 CID B105E00D PID 001BB000 SCS
T1418 000:561.027   CPU_ReadMem(32 bytes @ 0xE0001FE0)
T1418 000:566.967   [0][1]: E0001000 CID B105E00D PID 001BB002 DWT
T1418 000:567.055   CPU_ReadMem(32 bytes @ 0xE0002FE0)
T1418 000:573.092   [0][2]: E0002000 CID B105E00D PID 000BB003 FPB
T1418 000:573.189   CPU_ReadMem(32 bytes @ 0xE0000FE0)
T1418 000:579.716   [0][3]: E0000000 CID B105E00D PID 001BB001 ITM
T1418 000:579.855   CPU_ReadMem(32 bytes @ 0xE0040FE0)
T1418 000:584.747   [0][4]: E0040000 CID B105900D PID 001BB923 TPIU-Lite
T1418 000:584.837   CPU_ReadMem(32 bytes @ 0xE0041FE0)
T1418 000:590.117   [0][5]: E0041000 CID B105900D PID 101BB924 ETM-M3
T1418 000:590.415 - 157.160ms returns 0x1BA01477
T1418 000:590.511 JLINK_GetDLLVersion()
T1418 000:590.550 - 0.057ms returns 78607
T1418 000:590.595 JLINK_CORE_GetFound()
T1418 000:590.637 - 0.061ms returns 0x30000FF
T1418 000:590.683 JLINK_GetDebugInfo(0x100 = JLINKARM_ROM_TABLE_ADDR_INDEX)
T1418 000:590.722   Value=0xE00FF000
T1418 000:590.784 - 0.119ms returns 0
T1418 000:598.182 JLINK_ReadMem(0xE00FF000, 0x20 Bytes, ...)
T1418 000:598.304   CPU_ReadMem(32 bytes @ 0xE00FF000)
T1418 000:598.616   Data:  03 F0 F0 FF 03 20 F0 FF 03 30 F0 FF 03 10 F0 FF ...
T1418 000:598.729 - 0.572ms returns 0
T1418 000:598.786 JLINK_ReadMem(0xE000EFF0, 0x10 Bytes, ...)
T1418 000:598.876   CPU_ReadMem(16 bytes @ 0xE000EFF0)
T1418 000:599.109   Data:  0D 00 00 00 E0 00 00 00 05 00 00 00 B1 00 00 00
T1418 000:599.194 - 0.428ms returns 0
T1418 000:599.240 JLINK_ReadMem(0xE000EFD0, 0x20 Bytes, ...)
T1418 000:599.309   CPU_ReadMem(32 bytes @ 0xE000EFD0)
T1418 000:599.592   Data:  04 00 00 00 00 00 00 00 00 00 00 00 00 00 00 00 ...
T1418 000:599.705 - 0.485ms returns 0
T1418 000:599.750 JLINK_ReadMem(0xE0001FF0, 0x10 Bytes, ...)
T1418 000:599.797   CPU_ReadMem(16 bytes @ 0xE0001FF0)
T1418 000:601.484   Data:  0D 00 00 00 E0 00 00 00 05 00 00 00 B1 00 00 00
T1418 000:601.586 - 1.855ms returns 0
T1418 000:601.632 JLINK_ReadMem(0xE0001FD0, 0x20 Bytes, ...)
T1418 000:601.689   CPU_ReadMem(32 bytes @ 0xE0001FD0)
T1418 000:601.962   Data:  04 00 00 00 00 00 00 00 00 00 00 00 00 00 00 00 ...
T1418 000:602.050 - 0.440ms returns 0
T1418 000:602.100 JLINK_ReadMem(0xE0002FF0, 0x10 Bytes, ...)
T1418 000:602.156   CPU_ReadMem(16 bytes @ 0xE0002FF0)
T1418 000:602.416   Data:  0D 00 00 00 E0 00 00 00 05 00 00 00 B1 00 00 00
T1418 000:602.515 - 0.440ms returns 0
T1418 000:602.568 JLINK_ReadMem(0xE0002FD0, 0x20 Bytes, ...)
T1418 000:602.615   CPU_ReadMem(32 bytes @ 0xE0002FD0)
T1418 000:602.859   Data:  04 00 00 00 00 00 00 00 00 00 00 00 00 00 00 00 ...
T1418 000:602.942 - 0.392ms returns 0
T1418 000:602.984 JLINK_ReadMem(0xE0000FF0, 0x10 Bytes, ...)
T1418 000:603.026   CPU_ReadMem(16 bytes @ 0xE0000FF0)
T1418 000:604.484   Data:  0D 00 00 00 E0 00 00 00 05 00 00 00 B1 00 00 00
T1418 000:604.565 - 1.611ms returns 0
T1418 000:604.633 JLINK_ReadMem(0xE0000FD0, 0x20 Bytes, ...)
T1418 000:604.695   CPU_ReadMem(32 bytes @ 0xE0000FD0)
T1418 000:604.979   Data:  04 00 00 00 00 00 00 00 00 00 00 00 00 00 00 00 ...
T1418 000:605.091 - 0.486ms returns 0
T1418 000:605.153 JLINK_ReadMem(0xE0040FF0, 0x10 Bytes, ...)
T1418 000:605.216   CPU_ReadMem(16 bytes @ 0xE0040FF0)
T1418 000:605.495   Data:  0D 00 00 00 90 00 00 00 05 00 00 00 B1 00 00 00
T1418 000:605.610 - 0.475ms returns 0
T1418 000:605.654 JLINK_ReadMem(0xE0040FD0, 0x20 Bytes, ...)
T1418 000:605.701   CPU_ReadMem(32 bytes @ 0xE0040FD0)
T1418 000:607.522   Data:  04 00 00 00 00 00 00 00 00 00 00 00 00 00 00 00 ...
T1418 000:607.652 - 2.031ms returns 0
T1418 000:607.724 JLINK_ReadMem(0xE0041FF0, 0x10 Bytes, ...)
T1418 000:607.814   CPU_ReadMem(16 bytes @ 0xE0041FF0)
T1418 000:608.109   Data:  0D 00 00 00 90 00 00 00 05 00 00 00 B1 00 00 00
T1418 000:608.216 - 0.524ms returns 0
T1418 000:608.289 JLINK_ReadMem(0xE0041FD0, 0x20 Bytes, ...)
T1418 000:608.363   CPU_ReadMem(32 bytes @ 0xE0041FD0)
T1418 000:608.619   Data:  04 00 00 00 00 00 00 00 00 00 00 00 00 00 00 00 ...
T1418 000:608.695 - 0.425ms returns 0
T1418 000:608.760 JLINK_ReadMemU32(0xE000ED00, 0x1 Items)
T1418 000:608.807   CPU_ReadMem(4 bytes @ 0xE000ED00)
T1418 000:608.992   Data:  31 C2 1F 41
T1418 000:609.063   Debug reg: CPUID
T1418 000:609.122 - 0.381ms returns 1 (0x1)
T1418 000:609.167 JLINK_HasError()
T1418 000:609.213 JLINK_SetResetType(JLINKARM_CM3_RESET_TYPE_NORMAL)
T1418 000:609.252 - 0.057ms returns JLINKARM_CM3_RESET_TYPE_NORMAL
T1418 000:609.294 JLINK_Reset()
T1418 000:609.360   CPU is running
T1418 000:609.418   CPU_WriteMem(4 bytes @ 0xE000EDF0)
T1418 000:611.484   CPU is running
T1418 000:611.585   CPU_WriteMem(4 bytes @ 0xE000EDFC)
T1418 000:616.637   Reset: Halt core after reset via DEMCR.VC_CORERESET.
T1418 000:622.290   Reset: Reset device via AIRCR.SYSRESETREQ.
T1418 000:622.388   CPU is running
T1418 000:622.475   CPU_WriteMem(4 bytes @ 0xE000ED0C)
T1418 000:674.872   CPU_ReadMem(4 bytes @ 0xE000EDF0)
T1418 000:676.380   CPU_ReadMem(4 bytes @ 0xE000EDF0)
T1418 000:678.904   CPU_WriteMem(4 bytes @ 0xE000EDFC)
T1418 000:686.364   CPU_ReadMem(4 bytes @ 0xE000EDF0)
T1418 000:687.307   CPU_WriteMem(4 bytes @ 0xE0002000)
T1418 000:687.534   CPU_ReadMem(4 bytes @ 0xE000EDFC)
T1418 000:687.730   CPU_ReadMem(4 bytes @ 0xE0001000)
T1418 000:687.936 - 78.677ms
T1418 000:689.407 JLINK_Halt()
T1418 000:689.466 - 0.079ms returns 0x00
T1418 000:689.509 JLINK_IsHalted()
T1418 000:689.549 - 0.058ms returns TRUE
T1418 000:689.590 JLINK_ReadMemU32(0xE000EDF0, 0x1 Items)
T1418 000:689.638   CPU_ReadMem(4 bytes @ 0xE000EDF0)
T1418 000:689.833   Data:  03 00 03 00
T1418 000:689.906   Debug reg: DHCSR
T1418 000:689.963 - 0.392ms returns 1 (0x1)
T1418 000:690.027 JLINK_WriteU32_64(0xE000EDF0, 0xA05F0003)
T1418 000:690.068   Debug reg: DHCSR
T1418 000:690.428   CPU_WriteMem(4 bytes @ 0xE000EDF0)
T1418 000:690.682 - 0.701ms returns 0 (0x00000000)
T1418 000:690.757 JLINK_WriteU32_64(0xE000EDFC, 0x01000000)
T1418 000:690.798   Debug reg: DEMCR
T1418 000:690.867   CPU_WriteMem(4 bytes @ 0xE000EDFC)
T1418 000:692.372 - 1.671ms returns 0 (0x00000000)
T1418 000:713.597 JLINK_GetHWStatus(...)
T1418 000:713.865 - 0.319ms returns 0
T1418 000:732.017 JLINK_GetNumBPUnits(Type = 0xFFFFFF00)
T1418 000:732.093 - 0.096ms returns 0x06
T1418 000:732.136 JLINK_GetNumBPUnits(Type = 0xF0)
T1418 000:732.181 - 0.069ms returns 0x2000
T1418 000:732.226 JLINK_GetNumWPUnits()
T1418 000:732.264 - 0.056ms returns 4
T1418 000:747.309 JLINK_GetSpeed()
T1418 000:747.390 - 0.127ms returns 50000
T1418 000:764.915 JLINK_ReadMemU32(0xE000E004, 0x1 Items)
T1418 000:765.012   CPU_ReadMem(4 bytes @ 0xE000E004)
T1418 000:766.389   Data:  01 00 00 00
T1418 000:766.505 - 1.612ms returns 1 (0x1)
T1418 000:766.569 JLINK_ReadMemU32(0xE000E004, 0x1 Items)
T1418 000:766.617   CPU_ReadMem(4 bytes @ 0xE000E004)
T1418 000:766.903   Data:  01 00 00 00
T1418 000:767.002 - 0.458ms returns 1 (0x1)
T1418 000:767.066 JLINK_WriteMem(0xE0001000, 0x1C Bytes, ...)
T1418 000:767.120   Data:  01 00 00 00 00 00 00 00 00 00 00 00 00 00 00 00 ...
T1418 000:767.218   CPU_WriteMem(28 bytes @ 0xE0001000)
T1418 000:767.645 - 0.644ms returns 0x1C
T1418 000:767.751 JLINK_ReadMem(0xE0001000, 0x1C Bytes, ...)
T1418 000:767.817   CPU_ReadMem(28 bytes @ 0xE0001000)
T1418 000:768.219   Data:  01 00 00 40 00 00 00 00 00 00 00 00 00 00 00 00 ...
T1418 000:768.319 - 0.610ms returns 0
T1418 000:769.876 JLINK_Halt()
T1418 000:769.967 - 0.110ms returns 0x00
T1418 000:770.009 JLINK_IsHalted()
T1418 000:770.049 - 0.058ms returns TRUE
T1418 000:782.914 JLINK_WriteMem(0x20000000, 0x164 Bytes, ...)
T1418 000:782.973   Data:  00 BE 0A E0 0D 78 2D 06 68 40 08 24 40 00 00 D3 ...
T1418 000:783.288   CPU_WriteMem(356 bytes @ 0x20000000)
T1418 000:783.854 - 0.990ms returns 0x164
T1418 000:783.984 JLINK_HasError()
T1418 000:784.032 JLINK_WriteReg(R0, 0x08000000)
T1418 000:784.075 - 0.063ms returns 0
T1418 000:784.116 JLINK_WriteReg(R1, 0x00B71B00)
T1418 000:784.155 - 0.058ms returns 0
T1418 000:784.196 JLINK_WriteReg(R2, 0x00000001)
T1418 000:784.234 - 0.064ms returns 0
T1418 000:784.285 JLINK_WriteReg(R3, 0x00000000)
T1418 000:784.324 - 0.057ms returns 0
T1418 000:784.363 JLINK_WriteReg(R4, 0x00000000)
T1418 000:784.409 - 0.074ms returns 0
T1418 000:784.463 JLINK_WriteReg(R5, 0x00000000)
T1418 000:784.501 - 0.057ms returns 0
T1418 000:784.541 JLINK_WriteReg(R6, 0x00000000)
T1418 000:784.579 - 0.057ms returns 0
T1418 000:784.619 JLINK_WriteReg(R7, 0x00000000)
T1418 000:784.657 - 0.057ms returns 0
T1418 000:784.697 JLINK_WriteReg(R8, 0x00000000)
T1418 000:784.757 - 0.079ms returns 0
T1418 000:784.797 JLINK_WriteReg(R9, 0x20000160)
T1418 000:784.835 - 0.057ms returns 0
T1418 000:784.875 JLINK_WriteReg(R10, 0x00000000)
T1418 000:784.913 - 0.057ms returns 0
T1418 000:784.953 JLINK_WriteReg(R11, 0x00000000)
T1418 000:784.991 - 0.056ms returns 0
T1418 000:785.031 JLINK_WriteReg(R12, 0x00000000)
T1418 000:785.069 - 0.057ms returns 0
T1418 000:785.108 JLINK_WriteReg(R13 (SP), 0x20001000)
T1418 000:785.148 - 0.058ms returns 0
T1418 000:785.187 JLINK_WriteReg(R14, 0x20000001)
T1418 000:785.226 - 0.057ms returns 0
T1418 000:785.265 JLINK_WriteReg(R15 (PC), 0x20000038)
T1418 000:785.315 - 0.068ms returns 0
T1418 000:785.355 JLINK_WriteReg(XPSR, 0x01000000)
T1418 000:785.395 - 0.059ms returns 0
T1418 000:785.439 JLINK_WriteReg(MSP, 0x20001000)
T1418 000:785.477 - 0.056ms returns 0
T1418 000:785.522 JLINK_WriteReg(PSP, 0x20001000)
T1418 000:785.582 - 0.084ms returns 0
T1418 000:785.637 JLINK_WriteReg(CFBP, 0x00000000)
T1418 000:785.696 - 0.087ms returns 0
T1418 000:785.756 JLINK_SetBPEx(Addr = 0x20000000, Type = 0xFFFFFFF2)
T1418 000:785.819   CPU_ReadMem(2 bytes @ 0x20000000)
T1418 000:786.184 - 0.473ms returns 0x00000001
T1418 000:786.269 JLINK_Go()
T1418 000:786.334   CPU_WriteMem(2 bytes @ 0x20000000)
T1418 000:786.644   CPU_ReadMem(4 bytes @ 0xE0001000)
T1418 000:788.422   CPU_WriteMem(4 bytes @ 0xE0002008)
T1418 000:788.523   CPU_WriteMem(4 bytes @ 0xE000200C)
T1418 000:788.582   CPU_WriteMem(4 bytes @ 0xE0002010)
T1418 000:788.639   CPU_WriteMem(4 bytes @ 0xE0002014)
T1418 000:788.696   CPU_WriteMem(4 bytes @ 0xE0002018)
T1418 000:788.752   CPU_WriteMem(4 bytes @ 0xE000201C)
T1418 000:789.121   CPU_WriteMem(4 bytes @ 0xE0001004)
T1418 000:791.417 - 5.200ms
T1418 000:791.508 JLINK_IsHalted()
T1418 000:792.394   CPU_ReadMem(2 bytes @ 0x20000000)
T1418 000:794.435 - 2.996ms returns TRUE
T1418 000:794.555 JLINK_ReadReg(R15 (PC))
T1418 000:794.622 - 0.096ms returns 0x20000000
T1418 000:794.687 JLINK_ClrBPEx(BPHandle = 0x00000001)
T1418 000:794.755 - 0.100ms returns 0x00
T1418 000:794.822 JLINK_ReadReg(R0)
T1418 000:794.881 - 0.088ms returns 0x00000000
T1418 000:796.900 JLINK_HasError()
T1418 000:796.968 JLINK_WriteReg(R0, 0x08000000)
T1418 000:797.013 - 0.064ms returns 0
T1418 000:797.055 JLINK_WriteReg(R1, 0x00B71B00)
T1418 000:797.094 - 0.058ms returns 0
T1418 000:797.134 JLINK_WriteReg(R2, 0x00000001)
T1418 000:797.177 - 0.062ms returns 0
T1418 000:797.223 JLINK_WriteReg(R3, 0x00000000)
T1418 000:797.265 - 0.061ms returns 0
T1418 000:797.305 JLINK_WriteReg(R4, 0x00000000)
T1418 000:797.343 - 0.057ms returns 0
T1418 000:797.382 JLINK_WriteReg(R5, 0x00000000)
T1418 000:797.430 - 0.072ms returns 0
T1418 000:797.476 JLINK_WriteReg(R6, 0x00000000)
T1418 000:797.515 - 0.057ms returns 0
T1418 000:797.554 JLINK_WriteReg(R7, 0x00000000)
T1418 000:797.592 - 0.057ms returns 0
T1418 000:797.797 JLINK_WriteReg(R8, 0x00000000)
T1418 000:797.866 - 0.088ms returns 0
T1418 000:797.908 JLINK_WriteReg(R9, 0x20000160)
T1418 000:797.948 - 0.058ms returns 0
T1418 000:797.988 JLINK_WriteReg(R10, 0x00000000)
T1418 000:798.026 - 0.057ms returns 0
T1418 000:798.066 JLINK_WriteReg(R11, 0x00000000)
T1418 000:798.188 - 0.142ms returns 0
T1418 000:798.230 JLINK_WriteReg(R12, 0x00000000)
T1418 000:798.269 - 0.057ms returns 0
T1418 000:798.309 JLINK_WriteReg(R13 (SP), 0x20001000)
T1418 000:798.348 - 0.058ms returns 0
T1418 000:798.387 JLINK_WriteReg(R14, 0x20000001)
T1418 000:798.428 - 0.062ms returns 0
T1418 000:798.470 JLINK_WriteReg(R15 (PC), 0x2000007C)
T1418 000:798.508 - 0.056ms returns 0
T1418 000:798.548 JLINK_WriteReg(XPSR, 0x01000000)
T1418 000:798.586 - 0.056ms returns 0
T1418 000:798.625 JLINK_WriteReg(MSP, 0x20001000)
T1418 000:798.664 - 0.057ms returns 0
T1418 000:798.703 JLINK_WriteReg(PSP, 0x20001000)
T1418 000:798.750 - 0.075ms returns 0
T1418 000:798.830 JLINK_WriteReg(CFBP, 0x00000000)
T1418 000:798.906 - 0.101ms returns 0
T1418 000:798.959 JLINK_SetBPEx(Addr = 0x20000000, Type = 0xFFFFFFF2)
T1418 000:799.009 - 0.074ms returns 0x00000002
T1418 000:799.061 JLINK_Go()
T1418 000:799.127   CPU_ReadMem(4 bytes @ 0xE0001000)
T1418 000:799.891 - 0.877ms
T1418 000:799.974 JLINK_IsHalted()
T1418 000:800.170 - 0.232ms returns FALSE
T1418 000:800.232 JLINK_HasError()
T1418 000:824.426 JLINK_IsHalted()
T1418 000:825.247   CPU_ReadMem(2 bytes @ 0x20000000)
T1418 000:825.514 - 1.146ms returns TRUE
T1418 000:825.605 JLINK_ReadReg(R15 (PC))
T1418 000:825.659 - 0.078ms returns 0x20000000
T1418 000:825.710 JLINK_ClrBPEx(BPHandle = 0x00000002)
T1418 000:825.758 - 0.071ms returns 0x00
T1418 000:825.807 JLINK_ReadReg(R0)
T1418 000:825.856 - 0.076ms returns 0x00000000
T1418 000:878.716 JLINK_HasError()
T1418 000:878.794 JLINK_WriteReg(R0, 0x00000001)
T1418 000:878.840 - 0.066ms returns 0
T1418 000:878.882 JLINK_WriteReg(R1, 0x00B71B00)
T1418 000:878.921 - 0.058ms returns 0
T1418 000:878.961 JLINK_WriteReg(R2, 0x00000001)
T1418 000:879.000 - 0.059ms returns 0
T1418 000:879.041 JLINK_WriteReg(R3, 0x00000000)
T1418 000:879.084 - 0.061ms returns 0
T1418 000:879.123 JLINK_WriteReg(R4, 0x00000000)
T1418 000:879.162 - 0.057ms returns 0
T1418 000:879.201 JLINK_WriteReg(R5, 0x00000000)
T1418 000:879.239 - 0.057ms returns 0
T1418 000:879.280 JLINK_WriteReg(R6, 0x00000000)
T1418 000:879.318 - 0.057ms returns 0
T1418 000:879.358 JLINK_WriteReg(R7, 0x00000000)
T1418 000:879.397 - 0.057ms returns 0
T1418 000:879.436 JLINK_WriteReg(R8, 0x00000000)
T1418 000:879.475 - 0.057ms returns 0
T1418 000:879.515 JLINK_WriteReg(R9, 0x20000160)
T1418 000:879.553 - 0.056ms returns 0
T1418 000:879.592 JLINK_WriteReg(R10, 0x00000000)
T1418 000:879.631 - 0.057ms returns 0
T1418 000:879.670 JLINK_WriteReg(R11, 0x00000000)
T1418 000:879.709 - 0.057ms returns 0
T1418 000:879.748 JLINK_WriteReg(R12, 0x00000000)
T1418 000:879.786 - 0.056ms returns 0
T1418 000:879.825 JLINK_WriteReg(R13 (SP), 0x20001000)
T1418 000:879.864 - 0.058ms returns 0
T1418 000:879.903 JLINK_WriteReg(R14, 0x20000001)
T1418 000:879.942 - 0.057ms returns 0
T1418 000:879.981 JLINK_WriteReg(R15 (PC), 0x2000006A)
T1418 000:880.026 - 0.067ms returns 0
T1418 000:880.082 JLINK_WriteReg(XPSR, 0x01000000)
T1418 000:880.121 - 0.057ms returns 0
T1418 000:880.161 JLINK_WriteReg(MSP, 0x20001000)
T1418 000:880.211 - 0.068ms returns 0
T1418 000:880.251 JLINK_WriteReg(PSP, 0x20001000)
T1418 000:880.289 - 0.057ms returns 0
T1418 000:880.328 JLINK_WriteReg(CFBP, 0x00000000)
T1418 000:880.367 - 0.057ms returns 0
T1418 000:880.407 JLINK_SetBPEx(Addr = 0x20000000, Type = 0xFFFFFFF2)
T1418 000:880.449 - 0.079ms returns 0x00000003
T1418 000:880.518 JLINK_Go()
T1418 000:880.575   CPU_ReadMem(4 bytes @ 0xE0001000)
T1418 000:882.726 - 2.258ms
T1418 000:882.809 JLINK_IsHalted()
T1418 000:883.512   CPU_ReadMem(2 bytes @ 0x20000000)
T1418 000:883.873 - 1.110ms returns TRUE
T1418 000:883.948 JLINK_ReadReg(R15 (PC))
T1418 000:883.992 - 0.066ms returns 0x20000000
T1418 000:884.040 JLINK_ClrBPEx(BPHandle = 0x00000003)
T1418 000:884.087 - 0.066ms returns 0x00
T1418 000:884.127 JLINK_ReadReg(R0)
T1418 000:884.166 - 0.057ms returns 0x00000000
T1418 000:895.701 JLINK_WriteMem(0x20000000, 0x164 Bytes, ...)
T1418 000:895.788   Data:  00 BE 0A E0 0D 78 2D 06 68 40 08 24 40 00 00 D3 ...
T1418 000:895.868   CPU_WriteMem(356 bytes @ 0x20000000)
T1418 000:896.371 - 0.725ms returns 0x164
T1418 000:896.527 JLINK_HasError()
T1418 000:896.591 JLINK_WriteReg(R0, 0x08000000)
T1418 000:896.655 - 0.098ms returns 0
T1418 000:896.719 JLINK_WriteReg(R1, 0x00B71B00)
T1418 000:896.772 - 0.079ms returns 0
T1418 000:896.831 JLINK_WriteReg(R2, 0x00000002)
T1418 000:896.882 - 0.075ms returns 0
T1418 000:896.933 JLINK_WriteReg(R3, 0x00000000)
T1418 000:896.982 - 0.076ms returns 0
T1418 000:897.036 JLINK_WriteReg(R4, 0x00000000)
T1418 000:897.086 - 0.074ms returns 0
T1418 000:897.137 JLINK_WriteReg(R5, 0x00000000)
T1418 000:897.188 - 0.077ms returns 0
T1418 000:897.244 JLINK_WriteReg(R6, 0x00000000)
T1418 000:897.305 - 0.084ms returns 0
T1418 000:897.349 JLINK_WriteReg(R7, 0x00000000)
T1418 000:897.388 - 0.058ms returns 0
T1418 000:897.428 JLINK_WriteReg(R8, 0x00000000)
T1418 000:897.467 - 0.057ms returns 0
T1418 000:897.506 JLINK_WriteReg(R9, 0x20000160)
T1418 000:897.545 - 0.057ms returns 0
T1418 000:897.585 JLINK_WriteReg(R10, 0x00000000)
T1418 000:897.623 - 0.057ms returns 0
T1418 000:897.663 JLINK_WriteReg(R11, 0x00000000)
T1418 000:897.701 - 0.057ms returns 0
T1418 000:897.741 JLINK_WriteReg(R12, 0x00000000)
T1418 000:897.779 - 0.057ms returns 0
T1418 000:897.819 JLINK_WriteReg(R13 (SP), 0x20001000)
T1418 000:897.859 - 0.058ms returns 0
T1418 000:897.898 JLINK_WriteReg(R14, 0x20000001)
T1418 000:897.936 - 0.057ms returns 0
T1418 000:897.976 JLINK_WriteReg(R15 (PC), 0x20000038)
T1418 000:898.016 - 0.059ms returns 0
T1418 000:898.056 JLINK_WriteReg(XPSR, 0x01000000)
T1418 000:898.096 - 0.059ms returns 0
T1418 000:898.135 JLINK_WriteReg(MSP, 0x20001000)
T1418 000:898.174 - 0.057ms returns 0
T1418 000:898.213 JLINK_WriteReg(PSP, 0x20001000)
T1418 000:898.252 - 0.058ms returns 0
T1418 000:898.292 JLINK_WriteReg(CFBP, 0x00000000)
T1418 000:898.330 - 0.057ms returns 0
T1418 000:898.370 JLINK_SetBPEx(Addr = 0x20000000, Type = 0xFFFFFFF2)
T1418 000:898.417   CPU_ReadMem(2 bytes @ 0x20000000)
T1418 000:900.037 - 1.714ms returns 0x00000004
T1418 000:900.117 JLINK_Go()
T1418 000:900.165   CPU_WriteMem(2 bytes @ 0x20000000)
T1418 000:900.443   CPU_ReadMem(4 bytes @ 0xE0001000)
T1418 000:901.470 - 1.393ms
T1418 000:901.543 JLINK_IsHalted()
T1418 000:902.193   CPU_ReadMem(2 bytes @ 0x20000000)
T1418 000:904.038 - 2.535ms returns TRUE
T1418 000:904.112 JLINK_ReadReg(R15 (PC))
T1418 000:904.160 - 0.068ms returns 0x20000000
T1418 000:904.205 JLINK_ClrBPEx(BPHandle = 0x00000004)
T1418 000:904.249 - 0.063ms returns 0x00
T1418 000:904.298 JLINK_ReadReg(R0)
T1418 000:904.338 - 0.065ms returns 0x00000000
T1418 000:905.627 JLINK_WriteMem(0x20000164, 0x400 Bytes, ...)
T1418 000:905.711   Data:  B8 0C 00 20 7D 71 00 08 BD 02 00 08 BF 02 00 08 ...
T1418 000:905.784   CPU_WriteMem(1024 bytes @ 0x20000164)
T1418 000:906.767 - 1.178ms returns 0x400
T1418 000:906.838 JLINK_HasError()
T1418 000:906.883 JLINK_WriteReg(R0, 0x08000000)
T1418 000:906.926 - 0.062ms returns 0
T1418 000:906.975 JLINK_WriteReg(R1, 0x00000400)
T1418 000:907.022 - 0.068ms returns 0
T1418 000:907.064 JLINK_WriteReg(R2, 0x20000164)
T1418 000:907.115 - 0.069ms returns 0
T1418 000:907.157 JLINK_WriteReg(R3, 0x00000000)
T1418 000:907.206 - 0.072ms returns 0
T1418 000:907.253 JLINK_WriteReg(R4, 0x00000000)
T1418 000:907.298 - 0.067ms returns 0
T1418 000:907.345 JLINK_WriteReg(R5, 0x00000000)
T1418 000:907.389 - 0.067ms returns 0
T1418 000:907.437 JLINK_WriteReg(R6, 0x00000000)
T1418 000:907.482 - 0.067ms returns 0
T1418 000:907.529 JLINK_WriteReg(R7, 0x00000000)
T1418 000:907.574 - 0.067ms returns 0
T1418 000:907.621 JLINK_WriteReg(R8, 0x00000000)
T1418 000:907.666 - 0.067ms returns 0
T1418 000:907.713 JLINK_WriteReg(R9, 0x20000160)
T1418 000:907.758 - 0.067ms returns 0
T1418 000:907.804 JLINK_WriteReg(R10, 0x00000000)
T1418 000:907.849 - 0.067ms returns 0
T1418 000:907.896 JLINK_WriteReg(R11, 0x00000000)
T1418 000:907.950 - 0.082ms returns 0
T1418 000:908.010 JLINK_WriteReg(R12, 0x00000000)
T1418 000:908.083 - 0.117ms returns 0
T1418 000:908.162 JLINK_WriteReg(R13 (SP), 0x20001000)
T1418 000:908.218 - 0.080ms returns 0
T1418 000:908.269 JLINK_WriteReg(R14, 0x20000001)
T1418 000:908.316 - 0.071ms returns 0
T1418 000:908.365 JLINK_WriteReg(R15 (PC), 0x200000F4)
T1418 000:908.414 - 0.071ms returns 0
T1418 000:908.463 JLINK_WriteReg(XPSR, 0x01000000)
T1418 000:908.511 - 0.073ms returns 0
T1418 000:908.564 JLINK_WriteReg(MSP, 0x20001000)
T1418 000:908.612 - 0.067ms returns 0
T1418 000:908.652 JLINK_WriteReg(PSP, 0x20001000)
T1418 000:908.690 - 0.057ms returns 0
T1418 000:908.730 JLINK_WriteReg(CFBP, 0x00000000)
T1418 000:908.769 - 0.057ms returns 0
T1418 000:908.808 JLINK_SetBPEx(Addr = 0x20000000, Type = 0xFFFFFFF2)
T1418 000:908.848 - 0.058ms returns 0x00000005
T1418 000:908.888 JLINK_Go()
T1418 000:908.939   CPU_ReadMem(4 bytes @ 0xE0001000)
T1418 000:909.864 - 1.033ms
T1418 000:909.950 JLINK_IsHalted()
T1418 000:910.190 - 0.300ms returns FALSE
T1418 000:910.278 JLINK_HasError()
T1418 000:919.076 JLINK_IsHalted()
T1418 000:919.332 - 0.323ms returns FALSE
T1418 000:919.444 JLINK_HasError()
T1418 000:921.054 JLINK_IsHalted()
T1418 000:921.343 - 0.364ms returns FALSE
T1418 000:921.451 JLINK_HasError()
T1418 000:923.054 JLINK_IsHalted()
T1418 000:923.380 - 0.405ms returns FALSE
T1418 000:923.497 JLINK_HasError()
T1418 000:925.040 JLINK_IsHalted()
T1418 000:927.046 - 2.050ms returns FALSE
T1418 000:927.136 JLINK_HasError()
T1418 000:929.048 JLINK_IsHalted()
T1418 000:929.302 - 0.312ms returns FALSE
T1418 000:929.389 JLINK_HasError()
T1418 000:932.057 JLINK_IsHalted()
T1418 000:932.340 - 0.339ms returns FALSE
T1418 000:932.430 JLINK_HasError()
T1418 000:934.092 JLINK_IsHalted()
T1418 000:934.342 - 0.318ms returns FALSE
T1418 000:934.458 JLINK_HasError()
T1418 000:936.037 JLINK_IsHalted()
T1418 000:938.054 - 2.066ms returns FALSE
T1418 000:938.141 JLINK_HasError()
T1418 000:940.055 JLINK_IsHalted()
T1418 000:940.440 - 0.436ms returns FALSE
T1418 000:940.520 JLINK_HasError()
T1418 000:942.058 JLINK_IsHalted()
T1418 000:942.865   CPU_ReadMem(2 bytes @ 0x20000000)
T1418 000:943.380 - 1.388ms returns TRUE
T1418 000:943.475 JLINK_ReadReg(R15 (PC))
T1418 000:943.519 - 0.064ms returns 0x20000000
T1418 000:943.561 JLINK_ClrBPEx(BPHandle = 0x00000005)
T1418 000:943.601 - 0.059ms returns 0x00
T1418 000:943.642 JLINK_ReadReg(R0)
T1418 000:943.681 - 0.057ms returns 0x00000000
T1418 000:945.010 JLINK_WriteMem(0x20000164, 0x400 Bytes, ...)
T1418 000:945.073   Data:  08 60 10 BD 10 B5 00 21 00 20 00 22 21 4B 5B 68 ...
T1418 000:945.166   CPU_WriteMem(1024 bytes @ 0x20000164)
T1418 000:946.151 - 1.191ms returns 0x400
T1418 000:946.231 JLINK_HasError()
T1418 000:946.273 JLINK_WriteReg(R0, 0x08000400)
T1418 000:946.317 - 0.062ms returns 0
T1418 000:946.357 JLINK_WriteReg(R1, 0x00000400)
T1418 000:946.398 - 0.060ms returns 0
T1418 000:946.438 JLINK_WriteReg(R2, 0x20000164)
T1418 000:946.476 - 0.057ms returns 0
T1418 000:946.516 JLINK_WriteReg(R3, 0x00000000)
T1418 000:946.554 - 0.057ms returns 0
T1418 000:946.594 JLINK_WriteReg(R4, 0x00000000)
T1418 000:946.632 - 0.057ms returns 0
T1418 000:946.671 JLINK_WriteReg(R5, 0x00000000)
T1418 000:946.709 - 0.057ms returns 0
T1418 000:946.749 JLINK_WriteReg(R6, 0x00000000)
T1418 000:946.787 - 0.056ms returns 0
T1418 000:946.827 JLINK_WriteReg(R7, 0x00000000)
T1418 000:946.864 - 0.056ms returns 0
T1418 000:946.904 JLINK_WriteReg(R8, 0x00000000)
T1418 000:946.942 - 0.056ms returns 0
T1418 000:946.982 JLINK_WriteReg(R9, 0x20000160)
T1418 000:947.020 - 0.057ms returns 0
T1418 000:947.059 JLINK_WriteReg(R10, 0x00000000)
T1418 000:947.100 - 0.061ms returns 0
T1418 000:947.150 JLINK_WriteReg(R11, 0x00000000)
T1418 000:947.188 - 0.057ms returns 0
T1418 000:947.227 JLINK_WriteReg(R12, 0x00000000)
T1418 000:947.266 - 0.057ms returns 0
T1418 000:947.305 JLINK_WriteReg(R13 (SP), 0x20001000)
T1418 000:947.344 - 0.057ms returns 0
T1418 000:947.389 JLINK_WriteReg(R14, 0x20000001)
T1418 000:947.431 - 0.060ms returns 0
T1418 000:947.471 JLINK_WriteReg(R15 (PC), 0x200000F4)
T1418 000:947.509 - 0.057ms returns 0
T1418 000:947.549 JLINK_WriteReg(XPSR, 0x01000000)
T1418 000:947.587 - 0.057ms returns 0
T1418 000:947.627 JLINK_WriteReg(MSP, 0x20001000)
T1418 000:947.665 - 0.056ms returns 0
T1418 000:947.704 JLINK_WriteReg(PSP, 0x20001000)
T1418 000:947.742 - 0.056ms returns 0
T1418 000:947.781 JLINK_WriteReg(CFBP, 0x00000000)
T1418 000:947.820 - 0.057ms returns 0
T1418 000:947.859 JLINK_SetBPEx(Addr = 0x20000000, Type = 0xFFFFFFF2)
T1418 000:947.899 - 0.058ms returns 0x00000006
T1418 000:947.939 JLINK_Go()
T1418 000:947.990   CPU_ReadMem(4 bytes @ 0xE0001000)
T1418 000:950.768 - 2.880ms
T1418 000:950.848 JLINK_IsHalted()
T1418 000:953.106 - 2.331ms returns FALSE
T1418 000:953.217 JLINK_HasError()
T1418 000:955.101 JLINK_IsHalted()
T1418 000:955.489 - 0.438ms returns FALSE
T1418 000:955.577 JLINK_HasError()
T1418 000:957.633 JLINK_IsHalted()
T1418 000:957.911 - 0.341ms returns FALSE
T1418 000:958.002 JLINK_HasError()
T1418 000:960.098 JLINK_IsHalted()
T1418 000:960.326 - 0.273ms returns FALSE
T1418 000:960.404 JLINK_HasError()
T1418 000:966.095 JLINK_IsHalted()
T1418 000:968.081 - 2.025ms returns FALSE
T1418 000:968.156 JLINK_HasError()
T1418 000:970.095 JLINK_IsHalted()
T1418 000:970.405 - 0.382ms returns FALSE
T1418 000:970.515 JLINK_HasError()
T1418 000:972.102 JLINK_IsHalted()
T1418 000:972.412 - 0.391ms returns FALSE
T1418 000:972.531 JLINK_HasError()
T1418 000:974.101 JLINK_IsHalted()
T1418 000:974.418 - 0.390ms returns FALSE
T1418 000:974.529 JLINK_HasError()
T1418 000:976.097 JLINK_IsHalted()
T1418 000:976.326 - 0.266ms returns FALSE
T1418 000:976.392 JLINK_HasError()
T1418 000:978.100 JLINK_IsHalted()
T1418 000:978.386 - 0.351ms returns FALSE
T1418 000:978.480 JLINK_HasError()
T1418 000:980.111 JLINK_IsHalted()
T1418 000:980.391 - 0.336ms returns FALSE
T1418 000:980.475 JLINK_HasError()
T1418 000:983.525 JLINK_IsHalted()
T1418 000:984.357   CPU_ReadMem(2 bytes @ 0x20000000)
T1418 000:984.673 - 1.207ms returns TRUE
T1418 000:984.760 JLINK_ReadReg(R15 (PC))
T1418 000:984.804 - 0.063ms returns 0x20000000
T1418 000:984.845 JLINK_ClrBPEx(BPHandle = 0x00000006)
T1418 000:984.885 - 0.059ms returns 0x00
T1418 000:984.926 JLINK_ReadReg(R0)
T1418 000:984.964 - 0.057ms returns 0x00000000
T1418 000:985.862 JLINK_WriteMem(0x20000164, 0x400 Bytes, ...)
T1418 000:985.918   Data:  B1 F8 0E E0 4D 48 08 F0 A5 F9 52 49 08 80 4F 48 ...
T1418 000:985.988   CPU_WriteMem(1024 bytes @ 0x20000164)
T1418 000:986.966 - 1.150ms returns 0x400
T1418 000:987.042 JLINK_HasError()
T1418 000:987.086 JLINK_WriteReg(R0, 0x08000800)
T1418 000:987.136 - 0.074ms returns 0
T1418 000:987.183 JLINK_WriteReg(R1, 0x00000400)
T1418 000:987.222 - 0.058ms returns 0
T1418 000:987.262 JLINK_WriteReg(R2, 0x20000164)
T1418 000:987.300 - 0.057ms returns 0
T1418 000:987.340 JLINK_WriteReg(R3, 0x00000000)
T1418 000:987.378 - 0.058ms returns 0
T1418 000:987.419 JLINK_WriteReg(R4, 0x00000000)
T1418 000:987.457 - 0.057ms returns 0
T1418 000:987.497 JLINK_WriteReg(R5, 0x00000000)
T1418 000:987.535 - 0.056ms returns 0
T1418 000:987.574 JLINK_WriteReg(R6, 0x00000000)
T1418 000:987.612 - 0.057ms returns 0
T1418 000:987.652 JLINK_WriteReg(R7, 0x00000000)
T1418 000:987.690 - 0.056ms returns 0
T1418 000:987.729 JLINK_WriteReg(R8, 0x00000000)
T1418 000:987.767 - 0.056ms returns 0
T1418 000:987.806 JLINK_WriteReg(R9, 0x20000160)
T1418 000:987.845 - 0.057ms returns 0
T1418 000:987.885 JLINK_WriteReg(R10, 0x00000000)
T1418 000:987.923 - 0.056ms returns 0
T1418 000:987.962 JLINK_WriteReg(R11, 0x00000000)
T1418 000:988.000 - 0.057ms returns 0
T1418 000:988.040 JLINK_WriteReg(R12, 0x00000000)
T1418 000:988.079 - 0.058ms returns 0
T1418 000:988.124 JLINK_WriteReg(R13 (SP), 0x20001000)
T1418 000:988.170 - 0.067ms returns 0
T1418 000:988.212 JLINK_WriteReg(R14, 0x20000001)
T1418 000:988.250 - 0.057ms returns 0
T1418 000:988.290 JLINK_WriteReg(R15 (PC), 0x200000F4)
T1418 000:988.412 - 0.141ms returns 0
T1418 000:988.453 JLINK_WriteReg(XPSR, 0x01000000)
T1418 000:988.492 - 0.057ms returns 0
T1418 000:988.531 JLINK_WriteReg(MSP, 0x20001000)
T1418 000:988.570 - 0.057ms returns 0
T1418 000:988.609 JLINK_WriteReg(PSP, 0x20001000)
T1418 000:988.648 - 0.056ms returns 0
T1418 000:988.687 JLINK_WriteReg(CFBP, 0x00000000)
T1418 000:988.725 - 0.057ms returns 0
T1418 000:988.765 JLINK_SetBPEx(Addr = 0x20000000, Type = 0xFFFFFFF2)
T1418 000:988.805 - 0.059ms returns 0x00000007
T1418 000:988.845 JLINK_Go()
T1418 000:988.895   CPU_ReadMem(4 bytes @ 0xE0001000)
T1418 000:990.009 - 1.237ms
T1418 000:990.113 JLINK_IsHalted()
T1418 000:990.364 - 0.307ms returns FALSE
T1418 000:990.450 JLINK_HasError()
T1418 000:992.092 JLINK_IsHalted()
T1418 000:992.317 - 0.284ms returns FALSE
T1418 000:992.417 JLINK_HasError()
T1418 000:994.100 JLINK_IsHalted()
T1418 000:994.370 - 0.329ms returns FALSE
T1418 000:994.458 JLINK_HasError()
T1418 000:996.109 JLINK_IsHalted()
T1418 000:998.090 - 2.020ms returns FALSE
T1418 000:998.167 JLINK_HasError()
T1418 001:000.102 JLINK_IsHalted()
T1418 001:002.106 - 2.051ms returns FALSE
T1418 001:002.192 JLINK_HasError()
T1418 001:004.096 JLINK_IsHalted()
T1418 001:004.422 - 0.402ms returns FALSE
T1418 001:004.536 JLINK_HasError()
T1418 001:006.103 JLINK_IsHalted()
T1418 001:006.512 - 0.475ms returns FALSE
T1418 001:006.616 JLINK_HasError()
T1418 001:009.589 JLINK_IsHalted()
T1418 001:009.899 - 0.361ms returns FALSE
T1418 001:009.980 JLINK_HasError()
T1418 001:012.110 JLINK_IsHalted()
T1418 001:012.409 - 0.369ms returns FALSE
T1418 001:012.508 JLINK_HasError()
T1418 001:014.115 JLINK_IsHalted()
T1418 001:014.396 - 0.334ms returns FALSE
T1418 001:014.482 JLINK_HasError()
T1418 001:016.099 JLINK_IsHalted()
T1418 001:016.377 - 0.348ms returns FALSE
T1418 001:016.485 JLINK_HasError()
T1418 001:018.109 JLINK_IsHalted()
T1418 001:020.107 - 2.042ms returns FALSE
T1418 001:020.181 JLINK_HasError()
T1418 001:022.087 JLINK_IsHalted()
T1418 001:022.889   CPU_ReadMem(2 bytes @ 0x20000000)
T1418 001:023.217 - 1.201ms returns TRUE
T1418 001:023.321 JLINK_ReadReg(R15 (PC))
T1418 001:023.376 - 0.080ms returns 0x20000000
T1418 001:023.429 JLINK_ClrBPEx(BPHandle = 0x00000007)
T1418 001:023.481 - 0.076ms returns 0x00
T1418 001:023.527 JLINK_ReadReg(R0)
T1418 001:023.565 - 0.057ms returns 0x00000000
T1418 001:024.446 JLINK_WriteMem(0x20000164, 0x400 Bytes, ...)
T1418 001:024.520   Data:  1D 48 06 F0 CE FB 08 B9 01 20 10 BD 80 21 1A 48 ...
T1418 001:024.635   CPU_WriteMem(1024 bytes @ 0x20000164)
T1418 001:025.613 - 1.222ms returns 0x400
T1418 001:025.697 JLINK_HasError()
T1418 001:025.739 JLINK_WriteReg(R0, 0x08000C00)
T1418 001:025.782 - 0.062ms returns 0
T1418 001:025.823 JLINK_WriteReg(R1, 0x00000400)
T1418 001:025.863 - 0.059ms returns 0
T1418 001:025.903 JLINK_WriteReg(R2, 0x20000164)
T1418 001:025.942 - 0.057ms returns 0
T1418 001:025.981 JLINK_WriteReg(R3, 0x00000000)
T1418 001:026.019 - 0.056ms returns 0
T1418 001:026.059 JLINK_WriteReg(R4, 0x00000000)
T1418 001:026.100 - 0.066ms returns 0
T1418 001:026.155 JLINK_WriteReg(R5, 0x00000000)
T1418 001:026.212 - 0.083ms returns 0
T1418 001:026.266 JLINK_WriteReg(R6, 0x00000000)
T1418 001:026.322 - 0.080ms returns 0
T1418 001:026.376 JLINK_WriteReg(R7, 0x00000000)
T1418 001:026.420 - 0.062ms returns 0
T1418 001:026.460 JLINK_WriteReg(R8, 0x00000000)
T1418 001:026.499 - 0.057ms returns 0
T1418 001:026.538 JLINK_WriteReg(R9, 0x20000160)
T1418 001:026.586 - 0.070ms returns 0
T1418 001:026.630 JLINK_WriteReg(R10, 0x00000000)
T1418 001:026.668 - 0.057ms returns 0
T1418 001:026.708 JLINK_WriteReg(R11, 0x00000000)
T1418 001:026.747 - 0.057ms returns 0
T1418 001:026.787 JLINK_WriteReg(R12, 0x00000000)
T1418 001:026.825 - 0.057ms returns 0
T1418 001:026.865 JLINK_WriteReg(R13 (SP), 0x20001000)
T1418 001:026.904 - 0.058ms returns 0
T1418 001:026.943 JLINK_WriteReg(R14, 0x20000001)
T1418 001:026.981 - 0.056ms returns 0
T1418 001:027.021 JLINK_WriteReg(R15 (PC), 0x200000F4)
T1418 001:027.067 - 0.070ms returns 0
T1418 001:027.116 JLINK_WriteReg(XPSR, 0x01000000)
T1418 001:027.159 - 0.062ms returns 0
T1418 001:027.200 JLINK_WriteReg(MSP, 0x20001000)
T1418 001:027.238 - 0.057ms returns 0
T1418 001:027.277 JLINK_WriteReg(PSP, 0x20001000)
T1418 001:027.316 - 0.057ms returns 0
T1418 001:027.356 JLINK_WriteReg(CFBP, 0x00000000)
T1418 001:027.394 - 0.057ms returns 0
T1418 001:027.434 JLINK_SetBPEx(Addr = 0x20000000, Type = 0xFFFFFFF2)
T1418 001:027.475 - 0.060ms returns 0x00000008
T1418 001:027.516 JLINK_Go()
T1418 001:027.566   CPU_ReadMem(4 bytes @ 0xE0001000)
T1418 001:029.774 - 2.320ms
T1418 001:029.870 JLINK_IsHalted()
T1418 001:030.129 - 0.321ms returns FALSE
T1418 001:030.225 JLINK_HasError()
T1418 001:033.115 JLINK_IsHalted()
T1418 001:033.448 - 0.402ms returns FALSE
T1418 001:033.546 JLINK_HasError()
T1418 001:035.871 JLINK_IsHalted()
T1418 001:036.194 - 0.406ms returns FALSE
T1418 001:036.311 JLINK_HasError()
T1418 001:038.113 JLINK_IsHalted()
T1418 001:038.415 - 0.368ms returns FALSE
T1418 001:038.520 JLINK_HasError()
T1418 001:040.105 JLINK_IsHalted()
T1418 001:040.379 - 0.313ms returns FALSE
T1418 001:040.450 JLINK_HasError()
T1418 001:044.115 JLINK_IsHalted()
T1418 001:044.393 - 0.343ms returns FALSE
T1418 001:044.486 JLINK_HasError()
T1418 001:046.115 JLINK_IsHalted()
T1418 001:046.357 - 0.317ms returns FALSE
T1418 001:046.466 JLINK_HasError()
T1418 001:048.116 JLINK_IsHalted()
T1418 001:048.421 - 0.374ms returns FALSE
T1418 001:048.518 JLINK_HasError()
T1418 001:050.116 JLINK_IsHalted()
T1418 001:050.419 - 0.371ms returns FALSE
T1418 001:050.515 JLINK_HasError()
T1418 001:052.123 JLINK_IsHalted()
T1418 001:052.412 - 0.353ms returns FALSE
T1418 001:052.504 JLINK_HasError()
T1418 001:054.117 JLINK_IsHalted()
T1418 001:054.405 - 0.358ms returns FALSE
T1418 001:054.503 JLINK_HasError()
T1418 001:056.119 JLINK_IsHalted()
T1418 001:056.349 - 0.293ms returns FALSE
T1418 001:056.458 JLINK_HasError()
T1418 001:058.114 JLINK_IsHalted()
T1418 001:058.467 - 0.400ms returns FALSE
T1418 001:058.542 JLINK_HasError()
T1418 001:061.457 JLINK_IsHalted()
T1418 001:063.620   CPU_ReadMem(2 bytes @ 0x20000000)
T1418 001:065.122 - 3.711ms returns TRUE
T1418 001:065.197 JLINK_ReadReg(R15 (PC))
T1418 001:065.241 - 0.064ms returns 0x20000000
T1418 001:065.283 JLINK_ClrBPEx(BPHandle = 0x00000008)
T1418 001:065.322 - 0.059ms returns 0x00
T1418 001:065.363 JLINK_ReadReg(R0)
T1418 001:065.402 - 0.057ms returns 0x00000000
T1418 001:066.435 JLINK_WriteMem(0x20000164, 0x400 Bytes, ...)
T1418 001:066.497   Data:  3F FE 4F F4 80 70 1D 49 08 61 40 00 48 61 28 12 ...
T1418 001:066.567   CPU_WriteMem(1024 bytes @ 0x20000164)
T1418 001:067.543 - 1.165ms returns 0x400
T1418 001:067.630 JLINK_HasError()
T1418 001:067.672 JLINK_WriteReg(R0, 0x08001000)
T1418 001:067.715 - 0.062ms returns 0
T1418 001:067.756 JLINK_WriteReg(R1, 0x00000400)
T1418 001:067.797 - 0.059ms returns 0
T1418 001:067.837 JLINK_WriteReg(R2, 0x20000164)
T1418 001:067.875 - 0.056ms returns 0
T1418 001:067.914 JLINK_WriteReg(R3, 0x00000000)
T1418 001:067.952 - 0.056ms returns 0
T1418 001:067.992 JLINK_WriteReg(R4, 0x00000000)
T1418 001:068.031 - 0.057ms returns 0
T1418 001:068.070 JLINK_WriteReg(R5, 0x00000000)
T1418 001:068.117 - 0.073ms returns 0
T1418 001:068.165 JLINK_WriteReg(R6, 0x00000000)
T1418 001:068.213 - 0.067ms returns 0
T1418 001:068.253 JLINK_WriteReg(R7, 0x00000000)
T1418 001:068.291 - 0.057ms returns 0
T1418 001:068.331 JLINK_WriteReg(R8, 0x00000000)
T1418 001:068.369 - 0.056ms returns 0
T1418 001:068.409 JLINK_WriteReg(R9, 0x20000160)
T1418 001:068.447 - 0.057ms returns 0
T1418 001:068.487 JLINK_WriteReg(R10, 0x00000000)
T1418 001:068.525 - 0.057ms returns 0
T1418 001:068.564 JLINK_WriteReg(R11, 0x00000000)
T1418 001:068.603 - 0.057ms returns 0
T1418 001:068.642 JLINK_WriteReg(R12, 0x00000000)
T1418 001:068.684 - 0.064ms returns 0
T1418 001:068.728 JLINK_WriteReg(R13 (SP), 0x20001000)
T1418 001:068.773 - 0.070ms returns 0
T1418 001:068.824 JLINK_WriteReg(R14, 0x20000001)
T1418 001:068.863 - 0.057ms returns 0
T1418 001:068.902 JLINK_WriteReg(R15 (PC), 0x200000F4)
T1418 001:068.941 - 0.057ms returns 0
T1418 001:068.980 JLINK_WriteReg(XPSR, 0x01000000)
T1418 001:069.018 - 0.057ms returns 0
T1418 001:069.058 JLINK_WriteReg(MSP, 0x20001000)
T1418 001:069.100 - 0.064ms returns 0
T1418 001:069.145 JLINK_WriteReg(PSP, 0x20001000)
T1418 001:069.188 - 0.062ms returns 0
T1418 001:069.227 JLINK_WriteReg(CFBP, 0x00000000)
T1418 001:069.266 - 0.057ms returns 0
T1418 001:069.306 JLINK_SetBPEx(Addr = 0x20000000, Type = 0xFFFFFFF2)
T1418 001:069.346 - 0.059ms returns 0x00000009
T1418 001:069.386 JLINK_Go()
T1418 001:069.438   CPU_ReadMem(4 bytes @ 0xE0001000)
T1418 001:070.277 - 1.128ms
T1418 001:070.577 JLINK_IsHalted()
T1418 001:072.109 - 1.581ms returns FALSE
T1418 001:072.198 JLINK_HasError()
T1418 001:077.099 JLINK_IsHalted()
T1418 001:077.353 - 0.296ms returns FALSE
T1418 001:077.424 JLINK_HasError()
T1418 001:079.112 JLINK_IsHalted()
T1418 001:081.125 - 2.066ms returns FALSE
T1418 001:081.212 JLINK_HasError()
T1418 001:083.127 JLINK_IsHalted()
T1418 001:083.430 - 0.370ms returns FALSE
T1418 001:083.532 JLINK_HasError()
T1418 001:085.128 JLINK_IsHalted()
T1418 001:085.430 - 0.367ms returns FALSE
T1418 001:085.523 JLINK_HasError()
T1418 001:087.673 JLINK_IsHalted()
T1418 001:087.869 - 0.235ms returns FALSE
T1418 001:087.939 JLINK_HasError()
T1418 001:089.093 JLINK_IsHalted()
T1418 001:089.327 - 0.282ms returns FALSE
T1418 001:089.402 JLINK_HasError()
T1418 001:091.122 JLINK_IsHalted()
T1418 001:091.385 - 0.325ms returns FALSE
T1418 001:091.476 JLINK_HasError()
T1418 001:093.126 JLINK_IsHalted()
T1418 001:093.412 - 0.347ms returns FALSE
T1418 001:093.502 JLINK_HasError()
T1418 001:095.126 JLINK_IsHalted()
T1418 001:095.402 - 0.338ms returns FALSE
T1418 001:095.493 JLINK_HasError()
T1418 001:097.127 JLINK_IsHalted()
T1418 001:097.429 - 0.370ms returns FALSE
T1418 001:097.525 JLINK_HasError()
T1418 001:099.127 JLINK_IsHalted()
T1418 001:099.427 - 0.367ms returns FALSE
T1418 001:099.523 JLINK_HasError()
T1418 001:101.121 JLINK_IsHalted()
T1418 001:101.911   CPU_ReadMem(2 bytes @ 0x20000000)
T1418 001:102.199 - 1.129ms returns TRUE
T1418 001:102.276 JLINK_ReadReg(R15 (PC))
T1418 001:102.319 - 0.063ms returns 0x20000000
T1418 001:102.360 JLINK_ClrBPEx(BPHandle = 0x00000009)
T1418 001:102.398 - 0.058ms returns 0x00
T1418 001:102.439 JLINK_ReadReg(R0)
T1418 001:102.478 - 0.057ms returns 0x00000000
T1418 001:103.627 JLINK_WriteMem(0x20000164, 0x400 Bytes, ...)
T1418 001:103.725   Data:  3F FC 03 E0 00 21 07 20 FF F7 87 FC 00 BD F0 B5 ...
T1418 001:103.818   CPU_WriteMem(1024 bytes @ 0x20000164)
T1418 001:104.794 - 1.217ms returns 0x400
T1418 001:104.874 JLINK_HasError()
T1418 001:104.917 JLINK_WriteReg(R0, 0x08001400)
T1418 001:104.960 - 0.062ms returns 0
T1418 001:105.000 JLINK_WriteReg(R1, 0x00000400)
T1418 001:105.039 - 0.058ms returns 0
T1418 001:105.079 JLINK_WriteReg(R2, 0x20000164)
T1418 001:105.126 - 0.069ms returns 0
T1418 001:105.177 JLINK_WriteReg(R3, 0x00000000)
T1418 001:105.215 - 0.057ms returns 0
T1418 001:105.255 JLINK_WriteReg(R4, 0x00000000)
T1418 001:105.294 - 0.057ms returns 0
T1418 001:105.334 JLINK_WriteReg(R5, 0x00000000)
T1418 001:105.372 - 0.057ms returns 0
T1418 001:105.412 JLINK_WriteReg(R6, 0x00000000)
T1418 001:105.450 - 0.056ms returns 0
T1418 001:105.489 JLINK_WriteReg(R7, 0x00000000)
T1418 001:105.527 - 0.056ms returns 0
T1418 001:105.567 JLINK_WriteReg(R8, 0x00000000)
T1418 001:105.605 - 0.057ms returns 0
T1418 001:105.644 JLINK_WriteReg(R9, 0x20000160)
T1418 001:105.682 - 0.057ms returns 0
T1418 001:105.722 JLINK_WriteReg(R10, 0x00000000)
T1418 001:105.761 - 0.057ms returns 0
T1418 001:105.800 JLINK_WriteReg(R11, 0x00000000)
T1418 001:105.838 - 0.056ms returns 0
T1418 001:105.878 JLINK_WriteReg(R12, 0x00000000)
T1418 001:105.916 - 0.056ms returns 0
T1418 001:105.955 JLINK_WriteReg(R13 (SP), 0x20001000)
T1418 001:105.994 - 0.064ms returns 0
T1418 001:106.044 JLINK_WriteReg(R14, 0x20000001)
T1418 001:106.083 - 0.059ms returns 0
T1418 001:106.124 JLINK_WriteReg(R15 (PC), 0x200000F4)
T1418 001:106.168 - 0.062ms returns 0
T1418 001:106.208 JLINK_WriteReg(XPSR, 0x01000000)
T1418 001:106.246 - 0.057ms returns 0
T1418 001:106.286 JLINK_WriteReg(MSP, 0x20001000)
T1418 001:106.323 - 0.056ms returns 0
T1418 001:106.363 JLINK_WriteReg(PSP, 0x20001000)
T1418 001:106.401 - 0.057ms returns 0
T1418 001:106.441 JLINK_WriteReg(CFBP, 0x00000000)
T1418 001:106.479 - 0.056ms returns 0
T1418 001:106.518 JLINK_SetBPEx(Addr = 0x20000000, Type = 0xFFFFFFF2)
T1418 001:106.558 - 0.059ms returns 0x0000000A
T1418 001:106.598 JLINK_Go()
T1418 001:106.650   CPU_ReadMem(4 bytes @ 0xE0001000)
T1418 001:107.696 - 1.135ms
T1418 001:107.762 JLINK_IsHalted()
T1418 001:107.979 - 0.263ms returns FALSE
T1418 001:108.053 JLINK_HasError()
T1418 001:111.146 JLINK_IsHalted()
T1418 001:111.508 - 0.444ms returns FALSE
T1418 001:111.628 JLINK_HasError()
T1418 001:113.722 JLINK_IsHalted()
T1418 001:114.033 - 0.358ms returns FALSE
T1418 001:114.117 JLINK_HasError()
T1418 001:116.132 JLINK_IsHalted()
T1418 001:116.441 - 0.374ms returns FALSE
T1418 001:116.540 JLINK_HasError()
T1418 001:118.133 JLINK_IsHalted()
T1418 001:118.422 - 0.345ms returns FALSE
T1418 001:118.522 JLINK_HasError()
T1418 001:120.132 JLINK_IsHalted()
T1418 001:120.399 - 0.325ms returns FALSE
T1418 001:120.485 JLINK_HasError()
T1418 001:122.118 JLINK_IsHalted()
T1418 001:122.346 - 0.299ms returns FALSE
T1418 001:122.446 JLINK_HasError()
T1418 001:124.130 JLINK_IsHalted()
T1418 001:124.431 - 0.355ms returns FALSE
T1418 001:124.514 JLINK_HasError()
T1418 001:126.130 JLINK_IsHalted()
T1418 001:126.422 - 0.359ms returns FALSE
T1418 001:126.518 JLINK_HasError()
T1418 001:128.134 JLINK_IsHalted()
T1418 001:128.439 - 0.373ms returns FALSE
T1418 001:128.535 JLINK_HasError()
T1418 001:130.134 JLINK_IsHalted()
T1418 001:130.431 - 0.364ms returns FALSE
T1418 001:130.526 JLINK_HasError()
T1418 001:132.133 JLINK_IsHalted()
T1418 001:132.446 - 0.358ms returns FALSE
T1418 001:132.525 JLINK_HasError()
T1418 001:134.124 JLINK_IsHalted()
T1418 001:134.463 - 0.393ms returns FALSE
T1418 001:134.563 JLINK_HasError()
T1418 001:136.132 JLINK_IsHalted()
T1418 001:136.432 - 0.359ms returns FALSE
T1418 001:136.520 JLINK_HasError()
T1418 001:139.374 JLINK_IsHalted()
T1418 001:140.312   CPU_ReadMem(2 bytes @ 0x20000000)
T1418 001:140.645 - 1.331ms returns TRUE
T1418 001:140.739 JLINK_ReadReg(R15 (PC))
T1418 001:140.791 - 0.075ms returns 0x20000000
T1418 001:140.840 JLINK_ClrBPEx(BPHandle = 0x0000000A)
T1418 001:140.888 - 0.070ms returns 0x00
T1418 001:140.935 JLINK_ReadReg(R0)
T1418 001:140.980 - 0.067ms returns 0x00000000
T1418 001:141.895 JLINK_WriteMem(0x20000164, 0x400 Bytes, ...)
T1418 001:141.951   Data:  40 1E C0 B2 1A 49 08 60 80 20 18 49 48 61 08 61 ...
T1418 001:142.020   CPU_WriteMem(1024 bytes @ 0x20000164)
T1418 001:142.990 - 1.146ms returns 0x400
T1418 001:143.071 JLINK_HasError()
T1418 001:143.127 JLINK_WriteReg(R0, 0x08001800)
T1418 001:143.176 - 0.067ms returns 0
T1418 001:143.220 JLINK_WriteReg(R1, 0x00000400)
T1418 001:143.260 - 0.064ms returns 0
T1418 001:143.317 JLINK_WriteReg(R2, 0x20000164)
T1418 001:143.359 - 0.060ms returns 0
T1418 001:143.399 JLINK_WriteReg(R3, 0x00000000)
T1418 001:143.437 - 0.056ms returns 0
T1418 001:143.476 JLINK_WriteReg(R4, 0x00000000)
T1418 001:143.514 - 0.057ms returns 0
T1418 001:143.554 JLINK_WriteReg(R5, 0x00000000)
T1418 001:143.592 - 0.057ms returns 0
T1418 001:143.632 JLINK_WriteReg(R6, 0x00000000)
T1418 001:143.670 - 0.057ms returns 0
T1418 001:143.714 JLINK_WriteReg(R7, 0x00000000)
T1418 001:143.755 - 0.067ms returns 0
T1418 001:143.812 JLINK_WriteReg(R8, 0x00000000)
T1418 001:143.878 - 0.089ms returns 0
T1418 001:143.927 JLINK_WriteReg(R9, 0x20000160)
T1418 001:143.977 - 0.073ms returns 0
T1418 001:144.026 JLINK_WriteReg(R10, 0x00000000)
T1418 001:144.074 - 0.072ms returns 0
T1418 001:144.126 JLINK_WriteReg(R11, 0x00000000)
T1418 001:144.197 - 0.096ms returns 0
T1418 001:144.251 JLINK_WriteReg(R12, 0x00000000)
T1418 001:144.297 - 0.064ms returns 0
T1418 001:144.337 JLINK_WriteReg(R13 (SP), 0x20001000)
T1418 001:144.377 - 0.058ms returns 0
T1418 001:144.417 JLINK_WriteReg(R14, 0x20000001)
T1418 001:144.455 - 0.057ms returns 0
T1418 001:144.494 JLINK_WriteReg(R15 (PC), 0x200000F4)
T1418 001:144.532 - 0.056ms returns 0
T1418 001:144.572 JLINK_WriteReg(XPSR, 0x01000000)
T1418 001:144.610 - 0.057ms returns 0
T1418 001:144.649 JLINK_WriteReg(MSP, 0x20001000)
T1418 001:144.687 - 0.056ms returns 0
T1418 001:144.727 JLINK_WriteReg(PSP, 0x20001000)
T1418 001:144.765 - 0.056ms returns 0
T1418 001:144.804 JLINK_WriteReg(CFBP, 0x00000000)
T1418 001:144.843 - 0.057ms returns 0
T1418 001:144.883 JLINK_SetBPEx(Addr = 0x20000000, Type = 0xFFFFFFF2)
T1418 001:144.923 - 0.059ms returns 0x0000000B
T1418 001:144.963 JLINK_Go()
T1418 001:145.013   CPU_ReadMem(4 bytes @ 0xE0001000)
T1418 001:145.958 - 1.062ms
T1418 001:146.054 JLINK_IsHalted()
T1418 001:146.324 - 0.329ms returns FALSE
T1418 001:146.411 JLINK_HasError()
T1418 001:148.139 JLINK_IsHalted()
T1418 001:148.373 - 0.286ms returns FALSE
T1418 001:148.463 JLINK_HasError()
T1418 001:152.123 JLINK_IsHalted()
T1418 001:152.340 - 0.271ms returns FALSE
T1418 001:152.423 JLINK_HasError()
T1418 001:154.130 JLINK_IsHalted()
T1418 001:154.376 - 0.294ms returns FALSE
T1418 001:154.453 JLINK_HasError()
T1418 001:156.112 JLINK_IsHalted()
T1418 001:158.128 - 2.057ms returns FALSE
T1418 001:158.211 JLINK_HasError()
T1418 001:160.144 JLINK_IsHalted()
T1418 001:160.456 - 0.361ms returns FALSE
T1418 001:160.539 JLINK_HasError()
T1418 001:162.144 JLINK_IsHalted()
T1418 001:162.411 - 0.312ms returns FALSE
T1418 001:162.486 JLINK_HasError()
T1418 001:165.336 JLINK_IsHalted()
T1418 001:165.618 - 0.346ms returns FALSE
